! Touchstone file from project 
# GHZ S MA R 50.000000
! Terminal data exported
! Port[1] = a1
! Port[2] = a2
! Port[3] = a3
! Port[4] = a4


1.000000E-001    5.237302E-003    3.590584E+001    2.628404E-003    8.152410E+001    9.965992E-001    -2.338970E+000   5.972348E-004    -1.131944E+002   
                2.628404E-003    8.152410E+001    5.582213E-003    3.753302E+001    5.972122E-004    -1.132357E+002   9.964117E-001    -2.454082E+000   
                9.965992E-001    -2.338970E+000   5.972123E-004    -1.132357E+002   3.556347E-003    6.506754E+001    2.634277E-003    8.220742E+001    
                5.972347E-004    -1.131944E+002   9.964117E-001    -2.454082E+000   2.634277E-003    8.220742E+001    3.939024E-003    6.489536E+001    

2.000000E-001    6.292008E-003    3.247536E+001    5.170057E-003    8.034161E+001    9.948391E-001    -4.615203E+000   1.027637E-003    -1.149067E+002   
                5.170057E-003    8.034161E+001    7.864146E-003    4.822838E+001    1.000972E-003    -1.152230E+002   9.945615E-001    -4.843436E+000   
                9.948391E-001    -4.615203E+000   1.000972E-003    -1.152230E+002   6.224920E-003    6.142767E+001    5.211669E-003    8.201358E+001    
                1.027637E-003    -1.149067E+002   9.945615E-001    -4.843436E+000   5.211669E-003    8.201358E+001    6.914005E-003    6.247246E+001    

3.000000E-001    7.205731E-003    3.342545E+001    7.622429E-003    7.807550E+001    9.931126E-001    -6.836186E+000   1.387101E-003    -1.157627E+002   
                7.622429E-003    7.807550E+001    9.697720E-003    4.842682E+001    1.349061E-003    -1.155065E+002   9.927235E-001    -7.174222E+000   
                9.931126E-001    -6.836186E+000   1.349061E-003    -1.155065E+002   8.033704E-003    5.644377E+001    7.726108E-003    8.037953E+001    
                1.387101E-003    -1.157627E+002   9.927235E-001    -7.174222E+000   7.726108E-003    8.037952E+001    8.976825E-003    5.814722E+001    

4.000000E-001    8.146336E-003    3.397395E+001    1.000277E-002    7.574990E+001    9.916953E-001    -9.030479E+000   1.729853E-003    -1.163093E+002   
                1.000277E-002    7.574990E+001    1.104053E-002    4.548508E+001    1.691538E-003    -1.158207E+002   9.912061E-001    -9.475769E+000   
                9.916953E-001    -9.030479E+000   1.691538E-003    -1.158207E+002   9.197257E-003    5.264150E+001    1.017105E-002    7.854581E+001    
                1.729853E-003    -1.163093E+002   9.912061E-001    -9.475769E+000   1.017105E-002    7.854580E+001    1.033657E-002    5.477571E+001    

5.000000E-001    9.067034E-003    3.361293E+001    1.233263E-002    7.344926E+001    9.905282E-001    -1.121490E+001   2.070202E-003    -1.170890E+002   
                1.233263E-002    7.344926E+001    1.204556E-002    4.180745E+001    2.035173E-003    -1.166002E+002   9.899592E-001    -1.176616E+001   
                9.905282E-001    -1.121490E+001   2.035173E-003    -1.166002E+002   9.969985E-003    4.988336E+001    1.255330E-002    7.672033E+001    
                2.070202E-003    -1.170890E+002   9.899592E-001    -1.176616E+001   1.255330E-002    7.672032E+001    1.126272E-002    5.234993E+001    

6.000000E-001    9.925808E-003    3.251917E+001    1.462441E-002    7.115298E+001    9.895119E-001    -1.339612E+001   2.409817E-003    -1.181965E+002   
                1.462441E-002    7.115298E+001    1.283540E-002    3.816107E+001    2.378484E-003    -1.178069E+002   9.888799E-001    -1.405283E+001   
                9.895119E-001    -1.339612E+001   2.378484E-003    -1.178069E+002   1.052501E-002    4.778901E+001    1.488217E-002    7.493512E+001    
                2.409816E-003    -1.181965E+002   9.888799E-001    -1.405283E+001   1.488216E-002    7.493512E+001    1.194341E-002    5.055189E+001    

7.000000E-001    1.069966E-002    3.092562E+001    1.688238E-002    6.884152E+001    9.885767E-001    -1.557623E+001   2.747547E-003    -1.195905E+002   
                1.688238E-002    6.884151E+001    1.348718E-002    3.473925E+001    2.719175E-003    -1.193322E+002   9.878931E-001    -1.633828E+001   
                9.885767E-001    -1.557623E+001   2.719175E-003    -1.193322E+002   1.096231E-002    4.606773E+001    1.716453E-002    7.318237E+001    
                2.747547E-003    -1.195905E+002   9.878931E-001    -1.633828E+001   1.716452E-002    7.318237E+001    1.248806E-002    4.912103E+001    

8.000000E-001    1.137981E-002    2.900891E+001    1.910617E-002    6.650616E+001    9.876820E-001    -1.775570E+001   3.081952E-003    -1.212066E+002   
                1.910617E-002    6.650616E+001    1.404628E-002    3.154055E+001    3.055375E-003    -1.210818E+002   9.869536E-001    -1.862311E+001   
                9.876820E-001    -1.775570E+001   3.055375E-003    -1.210818E+002   1.133536E-002    4.453531E+001    1.940365E-002    7.144853E+001    
                3.081952E-003    -1.212066E+002   9.869536E-001    -1.862311E+001   1.940365E-002    7.144852E+001    1.295473E-002    4.788738E+001    

9.000000E-001    1.196610E-002    2.688504E+001    2.129310E-002    6.414514E+001    9.868065E-001    -1.993448E+001   3.411859E-003    -1.229877E+002   
                2.129310E-002    6.414514E+001    1.453844E-002    2.850701E+001    3.385738E-003    -1.229857E+002   9.860369E-001    -2.090730E+001   
                9.868065E-001    -1.993448E+001   3.385738E-003    -1.229857E+002   1.167094E-002    4.308286E+001    2.159959E-002    6.972250E+001    
                3.411859E-003    -1.229877E+002   9.860369E-001    -2.090730E+001   2.159959E-002    6.972250E+001    1.337181E-002    4.674855E+001    

1.000000E+000    1.246301E-002    2.462452E+001    2.343948E-002    6.175993E+001    9.859396E-001    -2.211239E+001   3.736450E-003    -1.248888E+002   
                2.343948E-002    6.175993E+001    1.497778E-002    2.557287E+001    3.709360E-003    -1.249936E+002   9.851304E-001    -2.319070E+001   
                9.859396E-001    -2.211239E+001   3.709360E-003    -1.249936E+002   1.198105E-002    4.164868E+001    2.375002E-002    6.799609E+001    
                3.736450E-003    -1.248888E+002   9.851304E-001    -2.319070E+001   2.375002E-002    6.799609E+001    1.375135E-002    4.564579E+001    

1.100000E+000    1.287712E-002    2.226705E+001    2.554130E-002    5.935322E+001    9.850768E-001    -2.428932E+001   4.055223E-003    -1.268753E+002   
                2.554130E-002    5.935322E+001    1.537154E-002    2.267992E+001    4.025691E-003    -1.270697E+002   9.842283E-001    -2.547316E+001   
                9.850768E-001    -2.428932E+001   4.025691E-003    -1.270697E+002   1.226975E-002    4.019945E+001    2.585115E-002    6.626229E+001    
                4.055223E-003    -1.268753E+002   9.842283E-001    -2.547316E+001   2.585115E-002    6.626229E+001    1.409663E-002    4.454738E+001    

1.200000E+000    1.321560E-002    1.983234E+001    2.759446E-002    5.692787E+001    9.842167E-001    -2.646516E+001   4.367940E-003    -1.289213E+002   
                2.759446E-002    5.692787E+001    1.572315E-002    1.978079E+001    4.334464E-003    -1.291879E+002   9.833283E-001    -2.775459E+001   
                9.842167E-001    -2.646516E+001   4.334464E-003    -1.291879E+002   1.253695E-002    3.871874E+001    2.789924E-002    6.451378E+001    
                4.367940E-003    -1.289213E+002   9.833283E-001    -2.775459E+001   2.789924E-002    6.451377E+001    1.440644E-002    4.343819E+001    

1.300000E+000    1.348544E-002    1.732744E+001    2.959501E-002    5.448652E+001    9.833595E-001    -2.863991E+001   4.674572E-003    -1.310071E+002   
                2.959501E-002    5.448652E+001    1.603394E-002    1.683796E+001    4.635638E-003    -1.313294E+002   9.824303E-001    -3.003493E+001   
                9.833595E-001    -2.863991E+001   4.635638E-003    -1.313294E+002   1.278043E-002    3.720009E+001    2.989275E-002    6.274374E+001    
                4.674572E-003    -1.310071E+002   9.824303E-001    -3.003493E+001   2.989275E-002    6.274374E+001    1.467741E-002    4.231332E+001    

1.400000E+000    1.369309E-002    1.475149E+001    3.153915E-002    5.203141E+001    9.825061E-001    -3.081356E+001   4.975262E-003    -1.331181E+002   
                3.153915E-002    5.203141E+001    1.630427E-002    1.382176E+001    4.929356E-003    -1.334807E+002   9.815349E-001    -3.231420E+001   
                9.825061E-001    -3.081356E+001   4.929356E-003    -1.334807E+002   1.299711E-002    3.564293E+001    3.183377E-002    6.095039E+001    
                4.975262E-003    -1.331181E+002   9.815349E-001    -3.231420E+001   3.183377E-002    6.095039E+001    1.490525E-002    4.117424E+001    

1.500000E+000    1.384440E-002    1.209868E+001    3.342328E-002    4.956436E+001    9.816575E-001    -3.298614E+001   5.270283E-003    -1.352429E+002   
                3.342328E-002    4.956436E+001    1.653426E-002    1.070829E+001    5.215905E-003    -1.356317E+002   9.806429E-001    -3.459240E+001   
                9.816575E-001    -3.298614E+001   5.215905E-003    -1.356317E+002   1.318359E-002    3.405013E+001    3.372576E-002    5.914105E+001    
                5.270283E-003    -1.352429E+002   9.806429E-001    -3.459240E+001   3.372576E-002    5.914105E+001    1.508552E-002    4.002656E+001    

1.600000E+000    1.394460E-002    9.360101E+000    3.524403E-002    4.708681E+001    9.808145E-001    -3.515770E+001   5.560012E-003    -1.373734E+002   
                3.524403E-002    4.708681E+001    1.672418E-002    7.477685E+000    5.495686E-003    -1.377754E+002   9.797555E-001    -3.686958E+001   
                9.808145E-001    -3.515770E+001   5.495686E-003    -1.377754E+002   1.333656E-002    3.242655E+001    3.556887E-002    5.732856E+001    
                5.560012E-003    -1.373734E+002   9.797555E-001    -3.686958E+001   3.556887E-002    5.732856E+001    1.521397E-002    3.887870E+001    

1.700000E+000    1.399845E-002    6.524807E+000    3.699821E-002    4.459981E+001    9.799780E-001    -3.732829E+001   5.844902E-003    -1.395032E+002   
                3.699821E-002    4.459981E+001    1.687483E-002    4.112713E+000    5.769190E-003    -1.399067E+002   9.788736E-001    -3.914579E+001   
                9.799780E-001    -3.732829E+001   5.769190E-003    -1.399067E+002   1.345295E-002    3.077823E+001    3.735852E-002    5.552317E+001    
                5.844902E-003    -1.395032E+002   9.788736E-001    -3.914579E+001   3.735852E-002    5.552317E+001    1.528678E-002    3.774114E+001    

1.800000E+000    1.401036E-002    3.580447E+000    3.868284E-002    4.210416E+001    9.791487E-001    -3.949795E+001   6.125466E-003    -1.416279E+002   
                3.868284E-002    4.210416E+001    1.698766E-002    5.977936E-001    6.036972E-003    -1.420223E+002   9.779979E-001    -4.142108E+001   
                9.791487E-001    -3.949795E+001   6.036972E-003    -1.420223E+002   1.353001E-002    2.911189E+001    3.908803E-002    5.372915E+001    
                6.125466E-003    -1.416279E+002   9.779979E-001    -4.142108E+001   3.908803E-002    5.372915E+001    1.530066E-002    3.662617E+001    

1.900000E+000    1.398455E-002    5.135914E-001    4.029515E-002    3.960034E+001    9.783270E-001    -4.166675E+001   6.402255E-003    -1.437445E+002   
                4.029515E-002    3.960034E+001    1.706499E-002    -3.081706E+000   6.299632E-003    -1.441199E+002   9.771291E-001    -4.369550E+001   
                9.783270E-001    -4.166675E+001   6.299632E-003    -1.441199E+002   1.356539E-002    2.743469E+001    4.075126E-002    5.194678E+001    
                6.402255E-003    -1.437445E+002   9.771291E-001    -4.369550E+001   4.075126E-002    5.194678E+001    1.525290E-002    3.554785E+001    

2.000000E+000    1.392522E-002    -2.690088E+000   4.183253E-002    3.708865E+001    9.775132E-001    -4.383472E+001   6.675847E-003    -1.458508E+002   
                4.183253E-002    3.708865E+001    1.711009E-002    -6.939874E+000   6.557803E-003    -1.461986E+002   9.762676E-001    -4.596911E+001   
                9.775132E-001    -4.383472E+001   6.557803E-003    -1.461986E+002   1.355712E-002    2.575416E+001    4.234345E-002    5.017509E+001    
                6.675847E-003    -1.458508E+002   9.762676E-001    -4.596910E+001   4.234344E-002    5.017509E+001    1.514146E-002    3.452221E+001    

2.100000E+000    1.383662E-002    -6.045703E+000   4.329257E-002    3.456917E+001    9.767076E-001    -4.600192E+001   6.946837E-003    -1.479457E+002   
                4.329257E-002    3.456917E+001    1.712731E-002    -1.099038E+001   6.812133E-003    -1.482577E+002   9.754138E-001    -4.824195E+001   
                9.767076E-001    -4.600192E+001   6.812133E-003    -1.482577E+002   1.350360E-002    2.407820E+001    4.386096E-002    4.841324E+001    
                6.946837E-003    -1.479457E+002   9.754138E-001    -4.824195E+001   4.386096E-002    4.841324E+001    1.496496E-002    3.356774E+001    

2.200000E+000    1.372330E-002    -9.569024E+000   4.467303E-002    3.204183E+001    9.759103E-001    -4.816839E+001   7.215824E-003    -1.500287E+002   
                4.467303E-002    3.204183E+001    1.712212E-002    -1.524637E+001   7.063276E-003    -1.502976E+002   9.745680E-001    -5.051408E+001   
                9.759103E-001    -4.816839E+001   7.063276E-003    -1.502976E+002   1.340359E-002    2.241522E+001    4.530094E-002    4.666089E+001    
                7.215824E-003    -1.500287E+002   9.745680E-001    -5.051408E+001   4.530094E-002    4.666089E+001    1.472273E-002    3.270597E+001    

2.300000E+000    1.359013E-002    -1.327627E+001   4.597184E-002    2.950641E+001    9.751214E-001    -5.033417E+001   7.483404E-003    -1.520999E+002   
                4.597184E-002    2.950641E+001    1.710126E-002    -1.972000E+001   7.311884E-003    -1.523190E+002   9.737304E-001    -5.278555E+001   
                9.751214E-001    -5.033416E+001   7.311884E-003    -1.523190E+002   1.325624E-002    2.077429E+001    4.666104E-002    4.491819E+001    
                7.483404E-003    -1.520999E+002   9.737304E-001    -5.278555E+001   4.666104E-002    4.491819E+001    1.441490E-002    3.196245E+001    

2.400000E+000    1.344250E-002    -1.718378E+001   4.718707E-002    2.696256E+001    9.743408E-001    -5.249930E+001   7.750168E-003    -1.541598E+002   
                4.718707E-002    2.696256E+001    1.707268E-002    -2.442174E+001   7.558599E-003    -1.543227E+002   9.729009E-001    -5.505640E+001   
                9.743408E-001    -5.249930E+001   7.558599E-003    -1.543227E+002   1.306101E-002    1.916543E+001    4.793919E-002    4.318563E+001    
                7.750168E-003    -1.541598E+002   9.729009E-001    -5.505640E+001   4.793919E-002    4.318563E+001    1.404245E-002    3.136797E+001    

2.500000E+000    1.328638E-002    -2.130742E+001   4.831699E-002    2.440981E+001    9.735686E-001    -5.466383E+001   8.016691E-003    -1.562092E+002   
                4.831699E-002    2.440981E+001    1.704564E-002    -2.935933E+001   7.804048E-003    -1.563103E+002   9.720795E-001    -5.732669E+001   
                9.735686E-001    -5.466382E+001   7.804048E-003    -1.563103E+002   1.281771E-002    1.759990E+001    4.913364E-002    4.146397E+001    
                8.016691E-003    -1.562092E+002   9.720795E-001    -5.732669E+001   4.913364E-002    4.146397E+001    1.360739E-002    3.096023E+001    

2.600000E+000    1.312844E-002    -2.566176E+001   4.936000E-002    2.184760E+001    9.728048E-001    -5.682779E+001   8.283535E-003    -1.582494E+002   
                4.936000E-002    2.184760E+001    1.703066E-002    -3.453642E+001   8.048838E-003    -1.582833E+002   9.712663E-001    -5.959646E+001   
                9.728048E-001    -5.682779E+001   8.048838E-003    -1.582833E+002   1.252645E-002    1.609073E+001    5.024280E-002    3.975411E+001    
                8.283535E-003    -1.582494E+002   9.712663E-001    -5.959646E+001   5.024280E-002    3.975411E+001    1.311289E-002    3.078608E+001    

2.700000E+000    1.297609E-002    -3.025893E+001   5.031467E-002    1.927525E+001    9.720492E-001    -5.899122E+001   8.551239E-003    -1.602816E+002   
                5.031467E-002    1.927525E+001    1.703934E-002    -3.995096E+001   8.293556E-003    -1.602433E+002   9.704611E-001    -6.186576E+001   
                9.720492E-001    -5.899122E+001   8.293556E-003    -1.602433E+002   1.218772E-002    1.465328E+001    5.126531E-002    3.805708E+001    
                8.551239E-003    -1.602816E+002   9.704611E-001    -6.186575E+001   5.126531E-002    3.805708E+001    1.256364E-002    3.090444E+001    

2.800000E+000    1.283752E-002    -3.510698E+001   5.117974E-002    1.669202E+001    9.713018E-001    -6.115417E+001   8.820322E-003    -1.623074E+002   
                5.117974E-002    1.669201E+001    1.708424E-002    -4.559358E+001   8.538760E-003    -1.621922E+002   9.696638E-001    -6.413463E+001   
                9.713018E-001    -6.115417E+001   8.538760E-003    -1.621922E+002   1.180231E-002    1.330606E+001    5.220001E-002    3.637401E+001    
                8.820322E-003    -1.623074E+002   9.696638E-001    -6.413462E+001   5.220001E-002    3.637401E+001    1.196624E-002    3.139013E+001    

2.900000E+000    1.272162E-002    -4.020811E+001   5.195410E-002    1.409703E+001    9.705624E-001    -6.331668E+001   9.091278E-003    -1.643284E+002   
                5.195410E-002    1.409703E+001    1.717850E-002    -5.144606E+001   8.784984E-003    -1.641320E+002   9.688741E-001    -6.640312E+001   
                9.705624E-001    -6.331668E+001   8.784984E-003    -1.641320E+002   1.137140E-002    1.207186E+001    5.304594E-002    3.470611E+001    
                9.091278E-003    -1.643284E+002   9.688741E-001    -6.640311E+001   5.304594E-002    3.470611E+001    1.132982E-002    3.233858E+001    

3.000000E+000    1.263792E-002    -4.555647E+001   5.263680E-002    1.148937E+001    9.698310E-001    -6.547878E+001   9.364573E-003    -1.663464E+002   
                5.263680E-002    1.148937E+001    1.733540E-002    -5.748037E+001   9.032734E-003    -1.660646E+002   9.680918E-001    -6.867127E+001   
                9.698310E-001    -6.547878E+001   9.032734E-003    -1.660646E+002   1.089662E-002    1.097926E+001    5.380233E-002    3.305463E+001    
                9.364573E-003    -1.663464E+002   9.680918E-001    -6.867127E+001   5.380233E-002    3.305463E+001    1.066701E-002    3.387106E+001    

3.100000E+000    1.259628E-002    -5.113623E+001   5.322706E-002    8.867988E+000    9.691073E-001    -6.764052E+001   9.640650E-003    -1.683631E+002   
                5.322706E-002    8.867988E+000    1.756782E-002    -6.365863E+001   9.282486E-003    -1.679920E+002   9.673166E-001    -7.093914E+001   
                9.691073E-001    -6.764051E+001   9.282486E-003    -1.679920E+002   1.038005E-002    1.006483E+001    5.446864E-002    3.142093E+001    
                9.640650E-003    -1.683631E+002   9.673166E-001    -7.093913E+001   5.446864E-002    3.142093E+001    9.995159E-003    3.613898E+001    

3.200000E+000    1.260662E-002    -5.692002E+001   5.372429E-002    6.231757E+000    9.683913E-001    -6.980193E+001   9.919918E-003    -1.703803E+002   
                5.372429E-002    6.231756E+000    1.788767E-002    -6.993421E+001   9.534685E-003    -1.699164E+002   9.665482E-001    -7.320675E+001   
                9.683913E-001    -6.980193E+001   9.534685E-003    -1.699164E+002   9.824460E-003    9.376123E+000    5.504452E-002    2.980644E+001    
                9.919918E-003    -1.703803E+002   9.665482E-001    -7.320675E+001   5.504452E-002    2.980644E+001    9.338147E-003    3.932337E+001    

3.300000E+000    1.267851E-002    -6.286844E+001   5.412805E-002    3.579441E+000    9.676828E-001    -7.196307E+001   1.020276E-002    -1.723998E+002   
