"Freq [GHz]","Phi [deg]","Theta [deg]","GainTotal []"
4.5,-180,0,2.22951090171359
4.5,-180,2,2.30665326457724
4.5,-180,4,2.37705862500883
4.5,-180,6,2.44002583807347
4.5,-180,8,2.49494291753063
4.5,-180,10,2.5412986534013
4.5,-180,12,2.57869182698547
4.5,-180,14,2.6068377667271
4.5,-180,16,2.62557208548728
4.5,-180,18,2.63485154191318
4.5,-180,20,2.63475207067578
4.5,-180,22,2.62546412353299
4.5,-180,24,2.60728555102828
4.5,-180,26,2.5806123294185
4.5,-180,28,2.545927496276
4.5,-180,30,2.50378869927227
4.5,-180,32,2.45481478511991
4.5,-180,34,2.399671859752
4.5,-180,36,2.33905923772167
4.5,-180,38,2.27369567047176
4.5,-180,40,2.20430620213269
4.5,-180,42,2.13160995083969
4.5,-180,44,2.05630905639907
4.5,-180,46,1.97907897465154
4.5,-180,48,1.90056023807063
4.5,-180,50,1.82135174365663
4.5,-180,52,1.74200557526697
4.5,-180,54,1.66302331988231
4.5,-180,56,1.58485379713687
4.5,-180,58,1.50789208941025
4.5,-180,60,1.43247973607749
4.5,-180,62,1.35890593991005
4.5,-180,64,1.28740962554213
4.5,-180,66,1.21818218852786
4.5,-180,68,1.15137077781151
4.5,-180,70,1.08708196331304
4.5,-180,72,1.02538565267539
4.5,-180,74,0.966319135943478
4.5,-180,76,0.909891153050249
4.5,-180,78,0.856085895592343
4.5,-180,80,0.804866870745548
4.5,-180,82,0.756180570705098
4.5,-180,84,0.709959905293257
4.5,-180,86,0.666127368051945
4.5,-180,88,0.624597917054854
4.5,-180,90,0.585281560767121
4.5,-180,92,0.548085646580242
4.5,-180,94,0.512916855261021
4.5,-180,96,0.479682908639519
4.5,-180,98,0.448294000627979
4.5,-180,100,0.418663963344223
4.5,-180,102,0.390711180956995
4.5,-180,104,0.364359264129177
4.5,-180,106,0.339537497852906
4.5,-180,108,0.316181075278911
4.5,-180,110,0.294231130048068
4.5,-180,112,0.273634579813353
4.5,-180,114,0.254343794234777
4.5,-180,116,0.236316101834841
4.5,-180,118,0.219513151764583
4.5,-180,120,0.203900148743772
4.5,-180,122,0.189444982139685
4.5,-180,124,0.176117273216159
4.5,-180,126,0.163887367841232
4.5,-180,128,0.152725305160625
4.5,-180,130,0.142599795656955
4.5,-180,132,0.133477244324721
4.5,-180,134,0.125320856091884
4.5,-180,136,0.118089860813843
4.5,-180,138,0.111738893892278
4.5,-180,140,0.106217565625763
4.5,-180,142,0.101470247660255
4.5,-180,144,0.0974360983589155
4.5,-180,146,0.0940493406563964
4.5,-180,148,0.0912397962373891
4.5,-180,150,0.0889336690480642
4.5,-180,152,0.0870545596978016
4.5,-180,154,0.0855246808224717
4.5,-180,156,0.0842662326122607
4.5,-180,158,0.08320288813612
4.5,-180,160,0.0822613304799806
4.5,-180,162,0.0813727786439345
4.5,-180,164,0.0804744370803906
4.5,-180,166,0.0795108050010359
4.5,-180,168,0.0784347862358504
4.5,-180,170,0.0772085483728677
4.5,-180,172,0.0758040907992429
4.5,-180,174,0.0742034945490295
4.5,-180,176,0.072398841809405
4.5,-180,178,0.0703918086831919
4.5,-180,180,0.0681929504192395
4.5,-178,0,2.22951090171359
4.5,-178,2,2.304051053197
4.5,-178,4,2.37173820706882
4.5,-178,6,2.43190276788315
4.5,-178,8,2.48396657036149
4.5,-178,10,2.52745373663996
4.5,-178,12,2.56199908246673
4.5,-178,14,2.58735384425119
4.5,-178,16,2.60338859665499
4.5,-178,18,2.61009333176525
4.5,-178,20,2.60757477086756
4.5,-178,22,2.59605107372747
4.5,-178,24,2.57584419388197
4.5,-178,26,2.54737019826212
4.5,-178,28,2.51112792294902
4.5,-178,30,2.46768637245307
4.5,-178,32,2.41767128709225
4.5,-178,34,2.36175130231478
4.5,-178,36,2.30062410655009
4.5,-178,38,2.2350029725038
4.5,-178,40,2.16560399341228
4.5,-178,42,2.09313430366303
4.5,-178,44,2.01828150552698
4.5,-178,46,1.94170446364057
4.5,-178,48,1.86402556919861
4.5,-178,50,1.78582451909218
4.5,-178,52,1.70763360351674
4.5,-178,54,1.62993445044165
4.5,-178,56,1.5531561378086
4.5,-178,58,1.47767455493928
4.5,-178,60,1.40381287345099
4.5,-178,62,1.33184297467228
4.5,-178,64,1.26198767447619
4.5,-178,66,1.19442358672907
4.5,-178,68,1.12928447216105
4.5,-178,70,1.06666492930444
4.5,-178,72,1.00662429711509
4.5,-178,74,0.949190653940086
4.5,-178,76,0.894364813665905
4.5,-178,78,0.842124236341838
4.5,-178,80,0.792426786630055
4.5,-178,82,0.745214288540045
4.5,-178,84,0.700415838658325
4.5,-178,86,0.657950852216755
4.5,-178,88,0.617731826708068
4.5,-178,90,0.579666816313927
4.5,-178,92,0.543661617204213
4.5,-178,94,0.509621668911497
4.5,-178,96,0.477453680648845
4.5,-178,98,0.447066993827047
4.5,-178,100,0.418374693367401
4.5,-178,102,0.391294480938501
4.5,-178,104,0.365749323212406
4.5,-178,106,0.341667887872228
4.5,-178,108,0.318984779630651
4.5,-178,110,0.297640588136335
4.5,-178,112,0.277581759524412
4.5,-178,114,0.258760303645927
4.5,-178,116,0.241133349787281
4.5,-178,118,0.224662565017727
4.5,-178,120,0.209313451184652
4.5,-178,122,0.195054538964039
4.5,-178,124,0.18185650016465
4.5,-178,126,0.169691202523279
4.5,-178,128,0.158530734310686
4.5,-178,130,0.148346428947377
4.5,-178,132,0.139107922229829
4.5,-178,134,0.130782276400506
4.5,-178,136,0.123333205873176
4.5,-178,138,0.116720438688463
4.5,-178,140,0.11089924551217
4.5,-178,142,0.105820164062058
4.5,-178,144,0.101428941212203
4.5,-178,146,0.0976667077433044
4.5,-178,148,0.09447039196938
4.5,-178,150,0.0917733685874512
4.5,-178,152,0.0895063284958601
4.5,-178,154,0.0875983445376009
4.5,-178,156,0.0859780977490275
4.5,-178,158,0.0845752193689682
4.5,-178,160,0.0833216962183571
4.5,-178,162,0.0821532816703963
4.5,-178,164,0.0810108517673876
4.5,-178,166,0.0798416464276028
4.5,-178,168,0.0786003392671345
4.5,-178,170,0.0772498862763287
4.5,-178,172,0.0757621131647115
4.5,-178,174,0.0741180131458787
4.5,-178,176,0.0723077406215376
4.5,-178,178,0.0703303008538658
4.5,-178,180,0.0681929504192398
4.5,-176,0,2.22951090171359
4.5,-176,2,2.30135479958024
4.5,-176,4,2.36623158898589
4.5,-176,6,2.4235040468417
4.5,-176,8,2.47262857463004
4.5,-176,10,2.51316528337914
4.5,-176,12,2.54478558183578
4.5,-176,14,2.56727706837281
4.5,-176,16,2.58054562547914
4.5,-176,18,2.58461471615792
4.5,-176,20,2.57962197934065
4.5,-176,22,2.56581331194801
4.5,-176,24,2.54353470449888
4.5,-176,26,2.51322216197829
4.5,-176,28,2.47539008975301
4.5,-176,30,2.43061855442201
4.5,-176,32,2.37953984138798
4.5,-176,34,2.32282472538482
4.5,-176,36,2.26116884879315
4.5,-176,38,2.19527956760498
4.5,-176,40,2.12586357913187
4.5,-176,42,2.05361559204604
4.5,-176,44,1.97920824123537
4.5,-176,46,1.90328339027077
4.5,-176,48,1.82644490579113
4.5,-176,50,1.74925293318401
4.5,-176,52,1.67221965348559
4.5,-176,54,1.59580645883595
4.5,-176,56,1.52042244898063
4.5,-176,58,1.4464241245922
4.5,-176,60,1.37411613453975
4.5,-176,62,1.30375292323547
4.5,-176,64,1.23554112012136
4.5,-176,66,1.16964251530455
4.5,-176,68,1.10617747226321
4.5,-176,70,1.04522863933173
4.5,-176,72,0.986844835252928
4.5,-176,74,0.931044999439767
4.5,-176,76,0.877822113807182
4.5,-176,78,0.827147019329261
4.5,-176,80,0.778972066204704
4.5,-176,82,0.733234551174212
4.5,-176,84,0.689859908767642
4.5,-176,86,0.648764634835884
4.5,-176,88,0.609858930526686
4.5,-176,90,0.573049062876923
4.5,-176,92,0.538239444477671
4.5,-176,94,0.50533443934768
4.5,-176,96,0.474239905396189
4.5,-176,98,0.444864485871061
4.5,-176,100,0.417120663195754
4.5,-176,102,0.390925588830881
4.5,-176,104,0.366201702485177
4.5,-176,106,0.342877153371439
4.5,-176,108,0.320886035465979
4.5,-176,110,0.300168448076398
4.5,-176,112,0.280670392617192
4.5,-176,114,0.26234351647083
4.5,-176,116,0.245144715272345
4.5,-176,118,0.229035605956577
4.5,-176,120,0.213981884462502
4.5,-176,122,0.199952584063734
4.5,-176,124,0.186919252803368
4.5,-176,126,0.174855071319881
4.5,-176,128,0.163733935276648
4.5,-176,130,0.153529529427618
4.5,-176,132,0.144214422810899
4.5,-176,134,0.135759216387681
4.5,-176,136,0.128131775361575
4.5,-176,138,0.121296578167275
4.5,-176,140,0.11521421249141
4.5,-176,142,0.109841045528756
4.5,-176,144,0.105129090912665
4.5,-176,146,0.101026088419162
4.5,-176,148,0.0974758047718182
4.5,-176,150,0.09441855492897
4.5,-176,152,0.0917919334896434
4.5,-176,154,0.0895317357832864
4.5,-176,156,0.0875730383615261
4.5,-176,158,0.0858513995822218
4.5,-176,160,0.0843041333660008
4.5,-176,162,0.0828716035721143
4.5,-176,164,0.081498483257079
4.5,-176,166,0.0801349226911809
4.5,-176,168,0.0787375725955273
4.5,-176,170,0.0772704146180478
4.5,-176,172,0.0757053593827278
4.5,-176,174,0.0740225831190989
4.5,-176,176,0.072210586330888
4.5,-176,178,0.0702659714779412
4.5,-176,180,0.06819295041924
4.5,-174,0,2.22951090171359
4.5,-174,2,2.29856804792996
4.5,-174,4,2.36054649783392
4.5,-174,6,2.41484214634621
4.5,-174,8,2.46094661576403
4.5,-174,10,2.49845655884765
4.5,-174,12,2.52708042250479
4.5,-174,14,2.54664250128227
4.5,-174,16,2.5570842085924
4.5,-174,18,2.55846259310168
4.5,-174,20,2.55094622320492
4.5,-174,22,2.53480864958899
4.5,-174,24,2.51041973078355
4.5,-174,26,2.47823516635993
4.5,-174,28,2.43878462509959
4.5,-174,30,2.39265888006601
4.5,-174,32,2.34049636914748
4.5,-174,34,2.28296958930172
4.5,-174,36,2.22077170723668
4.5,-174,38,2.15460373104461
4.5,-174,40,2.08516253923525
4.5,-174,42,2.01313000877733
4.5,-174,44,1.93916342526494
4.5,-174,46,1.86388729912801
4.5,-174,48,1.78788665455185
4.5,-174,50,1.71170180468996
4.5,-174,52,1.63582457959362
4.5,-174,54,1.56069593326964
4.5,-174,56,1.48670482413266
4.5,-174,58,1.41418823908111
4.5,-174,60,1.34343221532017
4.5,-174,62,1.27467370535968
4.5,-174,64,1.20810312854618
4.5,-174,66,1.14386745608461
4.5,-174,68,1.08207368470455
4.5,-174,70,1.02279256583874
4.5,-174,72,0.966062471348325
4.5,-174,74,0.911893292469384
4.5,-174,76,0.860270284898708
4.5,-174,78,0.811157789046621
4.5,-174,80,0.764502769865753
4.5,-174,82,0.720238134865167
4.5,-174,84,0.678285801622342
4.5,-174,86,0.638559497118414
4.5,-174,88,0.600967280459307
4.5,-174,90,0.565413788012265
4.5,-174,92,0.531802205761704
4.5,-174,94,0.500035977904453
4.5,-174,96,0.470020263536772
4.5,-174,98,0.441663154936112
4.5,-174,100,0.414876671626657
4.5,-174,102,0.389577544363133
4.5,-174,104,0.365687802594043
4.5,-174,106,0.343135178087141
4.5,-174,108,0.321853336416916
4.5,-174,110,0.301781947107461
4.5,-174,112,0.282866602553096
4.5,-174,114,0.265058595534256
4.5,-174,116,0.248314565306408
4.5,-174,118,0.232596022927554
4.5,-174,120,0.217868767727209
4.5,-174,122,0.204102208584527
4.5,-174,124,0.191268605907206
4.5,-174,126,0.179342252770806
4.5,-174,128,0.168298616429768
4.5,-174,130,0.158113464145897
4.5,-174,132,0.148761999763747
4.5,-174,134,0.14021803944038
4.5,-174,136,0.132453256148015
4.5,-174,138,0.125436522762165
4.5,-174,140,0.119133382506493
4.5,-174,142,0.113505673082415
4.5,-174,144,0.108511326872887
4.5,-174,146,0.10410436417249
4.5,-174,148,0.100235089560214
4.5,-174,150,0.096850493508201
4.5,-174,152,0.0938948524295564
4.5,-174,154,0.0913105110311267
4.5,-174,156,0.0890388215525075
4.5,-174,158,0.0870212057916631
4.5,-174,160,0.0852002983067044
4.5,-174,162,0.0835211233830643
4.5,-174,164,0.0819322547367509
4.5,-174,166,0.0803869058480239
4.5,-174,168,0.0788439004993846
4.5,-174,170,0.0772684775674029
4.5,-174,172,0.0756328912421651
4.5,-174,174,0.073916777286411
4.5,-174,176,0.0721072671929991
4.5,-174,178,0.0701988445083763
4.5,-174,180,0.0681929504192401
4.5,-172,0,2.22951090171359
4.5,-172,2,2.29569444972914
4.5,-172,4,2.35469086694055
4.5,-172,6,2.40592983528681
4.5,-172,8,2.44893876134248
4.5,-172,10,2.48335129016832
4.5,-172,12,2.50891324069929
4.5,-172,14,2.5254858205009
4.5,-172,16,2.53304607672105
4.5,-172,18,2.53168463847165
4.5,-172,20,2.52160089898737
4.5,-172,22,2.50309586947481
4.5,-172,24,2.4765630070325
4.5,-172,26,2.44247737371605
4.5,-172,28,2.40138352106691
4.5,-172,30,2.35388251357269
4.5,-172,32,2.30061850593861
4.5,-172,34,2.24226527398752
4.5,-172,36,2.1795130694869
4.5,-172,38,2.11305612781668
4.5,-172,40,2.04358110709822
4.5,-172,42,1.97175668131729
4.5,-172,44,1.89822445117286
4.5,-172,46,1.82359127774006
4.5,-172,48,1.74842308807774
4.5,-172,50,1.67324015072286
4.5,-172,52,1.59851377418053
4.5,-172,54,1.52466434410282
4.5,-172,56,1.45206058541284
4.5,-172,58,1.3810199142723
4.5,-172,60,1.31180973121352
4.5,-172,62,1.24464950034624
4.5,-172,64,1.17971345945526
4.5,-172,66,1.11713381102383
4.5,-172,68,1.05700425367476
4.5,-172,70,0.999383726130333
4.5,-172,72,0.944300250518595
4.5,-172,74,0.891754777752889
4.5,-172,76,0.841724953957044
4.5,-172,78,0.794168742813676
4.5,-172,80,0.749027853731402
4.5,-172,82,0.706230939454224
4.5,-172,84,0.665696538899348
4.5,-172,86,0.627335751452616
4.5,-172,88,0.59105463761841
4.5,-172,90,0.556756347841864
4.5,-172,92,0.524342986589367
4.5,-172,94,0.493717222532209
4.5,-172,96,0.464783658105786
4.5,-172,98,0.437449973013362
4.5,-172,100,0.411627856620788
4.5,-172,102,0.387233743861978
4.5,-172,104,0.364189368455774
4.5,-172,106,0.342422146125784
4.5,-172,108,0.321865399304997
4.5,-172,110,0.302458433668352
4.5,-172,112,0.28414647591987
4.5,-172,114,0.266880481692839
4.5,-172,116,0.250616822299524
4.5,-172,118,0.235316859456593
4.5,-172,120,0.220946418042996
4.5,-172,122,0.207475168408029
4.5,-172,124,0.194875931685932
4.5,-172,126,0.183123923893203
4.5,-172,128,0.172195957146567
4.5,-172,130,0.162069618964326
4.5,-172,132,0.152722453089115
4.5,-172,134,0.144131167359844
4.5,-172,136,0.136270895617411
4.5,-172,138,0.129114541210563
4.5,-172,140,0.122632229156067
4.5,-172,142,0.11679089222532
4.5,-172,144,0.111554013064507
4.5,-172,146,0.10688153987456
4.5,-172,148,0.102729987242536
4.5,-172,150,0.0990527265926456
4.5,-172,152,0.0958004626831123
4.5,-172,154,0.0929218839821864
4.5,-172,156,0.0903644660627559
4.5,-172,158,0.0880753988674605
4.5,-172,160,0.0860026013471659
4.5,-172,162,0.0840957810844109
4.5,-172,164,0.08230749254539
4.5,-172,166,0.0805941459303873
4.5,-172,168,0.0789169194543865
4.5,-172,170,0.0772425313696264
4.5,-172,172,0.0755438340478979
4.5,-172,174,0.0738002007017518
4.5,-172,176,0.0719976854030143
4.5,-172,178,0.0701289483757805
4.5,-172,180,0.0681929504192403
4.5,-170,0,2.22951090171359
4.5,-170,2,2.29273775806156
4.5,-170,4,2.34867282146361
4.5,-170,6,2.39678015420298
4.5,-170,8,2.43662342163076
4.5,-170,10,2.46787361162432
4.5,-170,12,2.49031414043174
4.5,-170,14,2.50384323121918
4.5,-170,16,2.50847355076862
4.5,-170,18,2.5043291869644
4.5,-170,20,2.49164014033708
4.5,-170,22,2.47073458291183
4.5,-170,24,2.4420292036063
4.5,-170,26,2.40601800903547
4.5,-170,28,2.36325998042487
4.5,-170,30,2.31436600106255
4.5,-170,32,2.25998546497603
4.5,-170,34,2.20079295781374
4.5,-170,36,2.13747536746438
4.5,-170,38,2.07071973749598
4.5,-170,40,2.00120212408161
4.5,-170,42,1.92957765983711
4.5,-170,44,1.85647196897497
4.5,-170,46,1.78247402016353
4.5,-170,48,1.70813044888001
4.5,-170,50,1.63394133179509
4.5,-170,52,1.56035735324757
4.5,-170,54,1.48777826906139
4.5,-170,56,1.41655254622686
4.5,-170,58,1.34697803827344
4.5,-170,60,1.279303545089
4.5,-170,62,1.21373110178284
4.5,-170,64,1.15041884303284
4.5,-170,66,1.08948429616118
4.5,-170,68,1.03100796685772
4.5,-170,70,0.97503709493946
4.5,-170,72,0.921589472786917
4.5,-170,74,0.870657235226297
4.5,-170,76,0.822210545849797
4.5,-170,78,0.776201120445987
4.5,-170,80,0.732565542852724
4.5,-170,82,0.691228341788839
4.5,-170,84,0.652104808837412
4.5,-170,86,0.61510354762376
4.5,-170,88,0.580128752330211
4.5,-170,90,0.547082220068381
4.5,-170,92,0.515865106397739
4.5,-170,94,0.486379436589222
4.5,-170,96,0.458529387265823
4.5,-170,98,0.432222354006992
4.5,-170,100,0.407369820586513
4.5,-170,102,0.383888044930654
4.5,-170,104,0.361698575836015
4.5,-170,106,0.340728613165649
4.5,-170,108,0.32091122282593
4.5,-170,110,0.302185416476871
4.5,-170,112,0.284496104788135
4.5,-170,114,0.267793932242609
4.5,-170,116,0.252035001105032
4.5,-170,118,0.237180492282119
4.5,-170,120,0.223196191438226
4.5,-170,122,0.210051929896562
4.5,-170,124,0.197720951511881
4.5,-170,126,0.186179218767437
4.5,-170,128,0.175404673707767
4.5,-170,130,0.165376471811828
4.5,-170,132,0.156074209346748
4.5,-170,134,0.147477166903888
4.5,-170,136,0.139563593473747
4.5,-170,138,0.132310056331716
4.5,-170,140,0.125690881965853
4.5,-170,142,0.119677712098085
4.5,-170,144,0.114239196402009
4.5,-170,146,0.109340839745279
4.5,-170,148,0.104945016709216
4.5,-170,150,0.10101115988581
4.5,-170,152,0.0974961212448569
4.5,-170,154,0.0943546980197024
4.5,-170,156,0.0915403064799717
4.5,-170,158,0.0890057791071926
4.5,-170,160,0.0867042535611665
4.5,-170,162,0.0845901159168664
4.5,-170,164,0.0826199564193913
4.5,-170,166,0.0807534938254022
4.5,-170,168,0.0789544245365932
4.5,-170,170,0.0771911553038901
4.5,-170,172,0.0754373832476315
4.5,-170,174,0.0736724940873598
4.5,-170,176,0.0718817584317122
4.5,-170,178,0.0700563162306469
4.5,-170,180,0.0681929504192404
4.5,-168,0,2.22951090171359
4.5,-168,2,2.28970182182835
4.5,-168,4,2.34250066380036
4.5,-168,6,2.38740638922767
4.5,-168,8,2.42401930984398
4.5,-168,10,2.45204800953987
4.5,-168,12,2.47131362187633
4.5,-168,14,2.48175137767507
4.5,-168,16,2.48340943638017
4.5,-168,18,2.47644511072688
4.5,-168,20,2.46111868229736
4.5,-168,22,2.43778508186278
4.5,-168,24,2.40688376990364
4.5,-168,26,2.36892719723029
4.5,-168,28,2.32448825210049
4.5,-168,30,2.27418710860233
4.5,-168,32,2.21867788225497
4.5,-168,34,2.15863547453496
4.5,-168,36,2.09474295077708
4.5,-168,38,2.02767974850179
4.5,-168,40,1.95811095880361
4.5,-168,42,1.88667786515083
4.5,-168,44,1.81398986480248
4.5,-168,46,1.74061784074486
4.5,-168,48,1.66708899886854
4.5,-168,50,1.59388313783503
4.5,-168,52,1.52143027898101
4.5,-168,54,1.45010955141384
4.5,-168,56,1.38024920341526
4.5,-168,58,1.31212759521327
4.5,-168,60,1.24597501957734
4.5,-168,62,1.18197619474329
4.5,-168,64,1.12027327790725
4.5,-168,66,1.06096925586759
4.5,-168,68,1.00413158123952
4.5,-168,70,0.949795936952139
4.5,-168,72,0.897970027477351
4.5,-168,74,0.848637311564435
4.5,-168,76,0.801760607428196
4.5,-168,78,0.757285516773195
4.5,-168,80,0.715143628284821
4.5,-168,82,0.675255473969596
4.5,-168,84,0.637533222793454
4.5,-168,86,0.601883105364798
4.5,-168,88,0.56820757094306
4.5,-168,90,0.536407183896382
4.5,-168,92,0.506382271008716
4.5,-168,94,0.478034333908399
4.5,-168,96,0.451267242541228
4.5,-168,98,0.425988226238062
4.5,-168,100,0.40210867873031
4.5,-168,102,0.379544792644203
4.5,-168,104,0.358218037747097
4.5,-168,106,0.338055495705908
4.5,-168,108,0.318990062516043
4.5,-168,110,0.300960528220013
4.5,-168,112,0.283911542192805
4.5,-168,114,0.267793471240674
4.5,-168,116,0.252562157134503
4.5,-168,118,0.238178580046255
4.5,-168,120,0.224608434717636
4.5,-168,122,0.21182162707244
4.5,-168,124,0.199791700362588
4.5,-168,126,0.188495201749977
4.5,-168,128,0.177911002371779
4.5,-168,130,0.168019586278506
4.5,-168,132,0.158802326001463
4.5,-168,134,0.150240764700909
4.5,-168,136,0.142315926652178
4.5,-168,138,0.135007679022231
4.5,-168,140,0.128294168260597
4.5,-168,142,0.122151353790017
4.5,-168,144,0.116552659890708
4.5,-168,146,0.111468763647152
4.5,-168,148,0.106867532563526
4.5,-168,150,0.102714120037325
4.5,-168,152,0.0989712204882561
4.5,-168,154,0.095599478841567
4.5,-168,156,0.0925580416155192
4.5,-168,158,0.0898052294814565
4.5,-168,160,0.0872993043123579
4.5,-168,162,0.0849992978814409
4.5,-168,164,0.0828658649591112
4.5,-168,166,0.0808621209632619
4.5,-168,168,0.0789544238244795
4.5,-168,170,0.0771130614852617
4.5,-168,172,0.0753128104623573
4.5,-168,174,0.0735333370060538
4.5,-168,176,0.0717594202761947
4.5,-168,178,0.0699809861698663
4.5,-168,180,0.0681929504192406
4.5,-166,0,2.22951090171359
4.5,-166,2,2.28659057987281
4.5,-166,4,2.33618285886871
4.5,-166,6,2.37782204589527
4.5,-166,8,2.41114540225775
4.5,-166,10,2.43589926693957
4.5,-166,12,2.45194250934976
4.5,-166,14,2.45924725380568
4.5,-166,16,2.45789691722773
4.5,-166,18,2.4480816958744
4.5,-166,20,2.43009172229544
4.5,-166,22,2.40430818627323
4.5,-166,24,2.37119277047989
4.5,-166,26,2.331275791035
4.5,-166,28,2.28514345430319
4.5,-166,30,2.23342464436322
4.5,-166,32,2.17677764180061
4.5,-166,34,2.1158771458168
4.5,-166,36,2.05140193071439
4.5,-166,38,1.98402341761444
4.5,-166,40,1.91439538597675
4.5,-166,42,1.84314499029125
4.5,-166,44,1.77086518814857
4.5,-166,46,1.69810862939166
4.5,-166,48,1.62538300435181
4.5,-166,50,1.55314780391956
4.5,-166,52,1.4818124064941
