"Freq [GHz]","Phi [deg]","Theta [deg]","GainTotal []"
60,-180,0,7.36752269720022
60,-180,2,7.29154095407514
60,-180,4,7.05530366366268
60,-180,6,6.67176983038018
60,-180,8,6.15893474586557
60,-180,10,5.53573336534528
60,-180,12,4.82055473954492
60,-180,14,4.03353400528622
60,-180,16,3.20153019071647
60,-180,18,2.36294729557527
60,-180,20,1.56925770940688
60,-180,22,0.881381088765718
60,-180,24,0.361277363512099
60,-180,26,0.06114801400864
60,-180,28,0.0136012747975247
60,-180,30,0.225709863610911
60,-180,32,0.678410257914331
60,-180,34,1.33088960860935
60,-180,36,2.12821247265029
60,-180,38,3.00987992600308
60,-180,40,3.91730011329855
60,-180,42,4.79897557285983
60,-180,44,5.61315670488405
60,-180,46,6.32842812934979
60,-180,48,6.92302471626572
60,-180,50,7.38364181999171
60,-180,52,7.70425093719101
60,-180,54,7.88512501584164
60,-180,56,7.93204192292588
60,-180,58,7.85552399800095
60,-180,60,7.66997639240255
60,-180,62,7.39266085703749
60,-180,64,7.04253189804267
60,-180,66,6.63902964919661
60,-180,68,6.20095089229461
60,-180,70,5.74550802435297
60,-180,72,5.28764850805909
60,-180,74,4.83966072996166
60,-180,76,4.41104977170294
60,-180,78,4.00863643455644
60,-180,80,3.63681744918578
60,-180,82,3.29792256227747
60,-180,84,2.99261137243064
60,-180,86,2.72026515540463
60,-180,88,2.47934284311753
60,-180,90,2.26768327014975
60,-180,92,2.08274639168311
60,-180,94,1.92179396285498
60,-180,96,1.78201534277503
60,-180,98,1.66060718077069
60,-180,100,1.55481739868765
60,-180,102,1.4619646817481
60,-180,104,1.37944504058491
60,-180,106,1.30473707507162
60,-180,108,1.23541723968041
60,-180,110,1.16919527571673
60,-180,112,1.10397740068151
60,-180,114,1.03796011240488
60,-180,116,0.969750067045942
60,-180,118,0.898495554591501
60,-180,120,0.824003892517742
60,-180,122,0.746809391545604
60,-180,124,0.668152732066685
60,-180,126,0.589839646359675
60,-180,128,0.513968622649461
60,-180,130,0.442553995086836
60,-180,132,0.377115758524383
60,-180,134,0.318346486386235
60,-180,136,0.265979013682756
60,-180,138,0.218947456490139
60,-180,140,0.175851668118878
60,-180,142,0.135616175254871
60,-180,144,0.0981192506358033
60,-180,146,0.0645128562167811
60,-180,148,0.0370100071792296
60,-180,150,0.0180959098599856
60,-180,152,0.00937625892264696
60,-180,154,0.0105056823818311
60,-180,156,0.018715719065323
60,-180,158,0.029301044872758
60,-180,160,0.0370436992649477
60,-180,162,0.0380996314210649
60,-180,164,0.0315593665970028
60,-180,166,0.0199182070328601
60,-180,168,0.00810316997274694
60,-180,170,0.00135535917346695
60,-180,172,0.00285389185882253
60,-180,174,0.0121759624611302
60,-180,176,0.0253657123957798
60,-180,178,0.0366496120811867
60,-180,180,0.041037486142265
60,-178,0,7.36752269720022
60,-178,2,7.29163800244804
60,-178,4,7.05565202914617
60,-178,6,6.67252560176819
60,-178,8,6.16026557629541
60,-178,10,5.537818459597
60,-178,12,4.82356560650028
60,-178,14,4.03758948637855
60,-178,16,3.20663008875891
60,-178,18,2.36890286216776
60,-178,20,1.5756458105507
60,-178,22,0.887545454908548
60,-178,24,0.36638499593903
60,-178,26,0.0642886957970605
60,-178,28,0.0139032018442132
60,-178,30,0.222441560284654
60,-178,32,0.67104825609492
60,-178,34,1.31914676750917
60,-178,36,2.11203516832881
60,-178,38,2.98942810743744
60,-178,40,3.89292185430652
60,-178,42,4.77118088176551
60,-178,44,5.58258894706955
60,-178,46,6.29582887486024
60,-178,48,6.88918964627131
60,-178,50,7.34936961033439
60,-178,52,7.67029105648454
60,-178,54,7.85213211970715
60,-178,56,7.90054346002219
60,-178,58,7.82590455600214
60,-178,60,7.64247861582354
60,-178,62,7.36739975214118
60,-178,64,7.01951771258723
60,-178,66,6.61819433502477
60,-178,68,6.18217403284219
60,-178,70,5.72863947948469
60,-178,72,5.27252640820347
60,-178,74,4.82612454060896
60,-178,76,4.39894884353259
60,-178,78,3.99783478880383
60,-178,80,3.62719562454964
60,-178,82,3.2893772803176
60,-178,84,2.98505365185823
60,-178,86,2.71361737853477
60,-178,88,2.4735351787157
60,-178,90,2.26264979598168
60,-178,92,2.07842123701059
60,-178,94,1.91810780029258
60,-178,96,1.77889259067096
60,-178,98,1.65796431668723
60,-178,100,1.55256280938411
60,-178,102,1.46000045455408
60,-178,104,1.37767099755316
60,-178,106,1.30305712659668
60,-178,108,1.23374776190583
60,-178,110,1.1674746997097
60,-178,112,1.10217559636252
60,-178,114,1.03608558123327
60,-178,116,0.967852620729668
60,-178,118,0.896662293409893
60,-178,120,0.822347124516721
60,-178,122,0.745446743408447
60,-178,124,0.667181937327108
60,-178,126,0.589312870829407
60,-178,128,0.513872908193285
60,-178,130,0.442804558623526
60,-178,132,0.377566791929628
60,-178,134,0.318819738922537
60,-178,136,0.266304737087061
60,-178,138,0.219007107439864
60,-178,140,0.175609328956488
60,-178,142,0.135127641859935
60,-178,144,0.0975142617022248
60,-178,146,0.063955077949787
60,-178,148,0.0366476478815626
60,-178,150,0.0180195853227165
60,-178,152,0.00959799470364949
60,-178,154,0.010964636281032
60,-178,156,0.0193059265809943
60,-178,158,0.029908796501254
60,-178,160,0.0375802473756911
60,-178,162,0.0385190087817741
60,-178,164,0.0318585162273095
60,-178,166,0.0201235706466238
60,-178,168,0.00825159372095218
60,-178,170,0.00147711395821957
60,-178,172,0.0029630488430837
60,-178,174,0.0122700050499582
60,-178,176,0.0254331085202149
60,-178,178,0.0366814371289106
60,-178,180,0.041037486142265
60,-176,0,7.36752269720022
60,-176,2,7.29181296345625
60,-176,4,7.0563416225245
60,-176,6,6.67410948559095
60,-176,8,6.16319706626137
60,-176,10,5.54263665212878
60,-176,12,4.83085144738854
60,-176,14,4.04783864532889
60,-176,16,3.2200488221097
60,-176,18,2.38517781857797
60,-176,20,1.59376973692131
60,-176,22,0.905777507181837
60,-176,24,0.382384089419501
60,-176,26,0.0753982303192394
60,-176,28,0.0175131014188255
60,-176,30,0.216331705774466
60,-176,32,0.653632869082813
60,-176,34,1.28958126823247
60,-176,36,2.07019460128656
60,-176,38,2.93579987911966
60,-176,40,3.82846564570703
60,-176,42,4.69719752652271
60,-176,44,5.50061814644897
60,-176,46,6.20757465493698
60,-176,48,6.7964603446082
60,-176,50,7.25401780485451
60,-176,52,7.57414522003668
60,-176,54,7.75692079142866
60,-176,56,7.80781986053036
60,-176,58,7.7369824672118
60,-176,60,7.55838893177247
60,-176,62,7.28887286183353
60,-176,64,6.9469917752831
60,-176,66,6.55184519608445
60,-176,68,6.12195991130884
60,-176,70,5.67435279757048
60,-176,72,5.22384586646274
60,-176,74,4.78266217741798
60,-176,76,4.36028876607024
60,-176,78,3.96356208248344
60,-176,80,3.59691538560908
60,-176,82,3.26272468839957
60,-176,84,2.961696541831
60,-176,86,2.69325298470632
60,-176,88,2.45588273209777
60,-176,90,2.24744056950003
60,-176,92,2.06538754166205
60,-176,94,1.90697239014265
60,-176,96,1.76935995153641
60,-176,98,1.64971536860343
60,-176,100,1.54525458389784
60,-176,102,1.45327221639092
60,-176,104,1.37115794295704
60,-176,106,1.29641208110393
60,-176,108,1.22667012659395
60,-176,110,1.15974425372725
60,-176,112,1.09368680285416
60,-176,114,1.02687611611819
60,-176,116,0.958118518628766
60,-176,118,0.886752102784933
60,-176,120,0.812729480742339
60,-176,122,0.736650189823222
60,-176,124,0.659712385478093
60,-176,126,0.583561607934817
60,-176,128,0.510034411631424
60,-176,130,0.440825910344719
60,-176,132,0.377146887220116
60,-176,134,0.319465945534484
60,-176,136,0.267438881549496
60,-176,138,0.22009608451953
60,-176,140,0.176284402927416
60,-176,142,0.135256231415494
60,-176,144,0.0972009258095295
60,-176,146,0.0634714964561747
60,-176,148,0.0363164883912984
60,-176,150,0.0180939778625464
60,-176,152,0.010179121375477
60,-176,154,0.0119835990173155
60,-176,156,0.0205694146816255
60,-176,158,0.0311830157768771
60,-176,160,0.0386752148734892
60,-176,162,0.0393403765501903
60,-176,164,0.0324126428479609
60,-176,166,0.0204835567423438
60,-176,168,0.00850692522339258
60,-176,170,0.00169181802780825
60,-176,172,0.00315820655853977
60,-176,174,0.0124323838140886
60,-176,176,0.025539731229617
60,-176,178,0.0367246648393766
60,-176,180,0.041037486142265
60,-174,0,7.36752269720022
60,-174,2,7.29206498462093
60,-174,4,7.05736858126138
60,-174,6,6.6765110081844
60,-174,8,6.1677063644529
60,-174,10,5.55014489933297
60,-174,12,4.84234090965895
60,-174,14,4.06417714980967
60,-174,16,3.24165292686632
60,-174,18,2.41162653386886
60,-174,20,1.62350366245998
60,-174,22,0.936015879507508
60,-174,24,0.409328675950335
60,-174,26,0.0946946839035677
60,-174,28,0.0248514462550864
60,-174,30,0.208026343928082
60,-174,32,0.627042652525492
60,-174,34,1.24329696187251
60,-174,36,2.00400173989262
60,-174,38,2.85048656453905
60,-174,40,3.72556842421988
60,-174,42,4.57876456104218
60,-174,44,5.36903246365794
60,-174,46,6.06544105786167
60,-174,48,6.64653291532867
60,-174,50,7.09913682869076
60,-174,52,7.41716006741911
60,-174,54,7.60059098513524
60,-174,56,7.65470190979926
60,-174,58,7.58931944894261
60,-174,60,7.41802145361161
60,-174,62,7.15718534176662
60,-174,64,6.82489994982215
60,-174,66,6.43982255799927
60,-174,68,6.02009460217807
60,-174,70,5.58242330824036
60,-174,72,5.14140361048227
60,-174,74,4.70911081591128
60,-174,76,4.29495307722435
60,-174,78,3.90574229580094
60,-174,80,3.54592562974223
60,-174,82,3.21791622974017
60,-174,84,2.92246777007837
60,-174,86,2.65904874578312
60,-174,88,2.42618580852523
60,-174,90,2.22175806338867
60,-174,92,2.04323479218429
60,-174,94,1.88785696616816
60,-174,96,1.75276824589445
60,-174,98,1.63510435984718
60,-174,100,1.53205133458094
60,-174,102,1.44088349445741
60,-174,104,1.35899179387195
60,-174,106,1.28391204513578
60,-174,108,1.21336094269386
60,-174,110,1.14528530874424
60,-174,112,1.07792649512372
60,-174,114,1.00989724453553
60,-174,116,0.940262659863357
60,-174,118,0.868610821290056
60,-174,120,0.7950932299109
60,-174,122,0.720412554190106
60,-174,124,0.645737545701995
60,-174,126,0.572534826802653
60,-174,128,0.502325701401085
60,-174,130,0.436401698508259
60,-174,132,0.375559695817598
60,-174,134,0.319936286002824
60,-174,136,0.269019024292883
60,-174,138,0.221878725571668
60,-174,140,0.177600111447127
60,-174,142,0.135801059422544
60,-174,144,0.0970539854667669
60,-174,146,0.0629977600709556
60,-174,148,0.0359903540399999
60,-174,150,0.0183079667461335
60,-174,152,0.0111062594310695
60,-174,154,0.013538491965822
60,-174,156,0.0224714052160203
60,-174,158,0.0330836870857529
60,-174,160,0.0402904059696268
60,-174,162,0.0405328375573226
60,-174,164,0.0332004872140209
60,-174,166,0.0209858607093524
60,-174,168,0.00886331587523652
60,-174,170,0.00199723296841888
60,-174,172,0.00343859826848502
60,-174,174,0.0126627219228487
60,-174,176,0.0256853193166546
60,-174,178,0.0367791844720663
60,-174,180,0.041037486142265
60,-172,0,7.36752269720022
60,-172,2,7.29239278287928
60,-172,4,7.05872694982405
60,-172,6,6.67971371821868
60,-172,8,6.17375705462698
60,-172,10,5.56027385750946
60,-172,12,4.8579180973728
60,-172,14,4.0864343798867
60,-172,16,3.27122262133909
60,-172,18,2.4480068662035
60,-172,20,1.66463422482417
60,-172,22,0.978147686097536
60,-172,24,0.447288125891803
60,-172,26,0.122507431210605
60,-172,28,0.0365682240948015
60,-172,30,0.198531564545774
60,-172,32,0.592649086739589
60,-172,34,1.18201843587609
60,-172,36,1.91550743717207
60,-172,38,2.73582956740029
60,-172,40,3.58681954429834
60,-172,42,4.41866799549051
60,-172,44,5.19075092038041
60,-172,46,5.87240154682949
60,-172,48,6.44234278497482
60,-172,50,6.88752337062268
60,-172,52,7.20189426527551
60,-172,54,7.38537694190185
60,-172,56,7.44303646358674
60,-172,58,7.38434269500099
60,-172,60,7.22238458043962
60,-172,62,6.97295826309492
60,-172,64,6.65353136912277
60,-172,66,6.28215369890313
60,-172,68,5.8764183281645
60,-172,70,5.45257457506399
60,-172,72,5.02486541890034
60,-172,74,4.60512126166066
60,-172,76,4.20260246101214
60,-172,78,3.82405331082444
60,-172,80,3.47391344993284
60,-172,82,3.15462834296314
60,-172,84,2.86700546187046
60,-172,86,2.61057331937953
60,-172,88,2.38391314046945
60,-172,90,2.18494519451848
60,-172,92,2.011162167769
60,-172,94,1.85980982802858
60,-172,96,1.72802062225652
60,-172,98,1.61290908551345
60,-172,100,1.51163946758094
60,-172,102,1.42147620063952
60,-172,104,1.33982701750998
60,-172,106,1.26428682948007
60,-172,108,1.19268792851961
60,-172,110,1.12315870454039
60,-172,112,1.05418894811353
60,-172,114,0.984695206871375
60,-172,116,0.914075123713636
60,-172,118,0.842236089152524
60,-172,120,0.769582087488235
60,-172,122,0.696944676182611
60,-172,124,0.62545083574317
60,-172,126,0.556332541787595
60,-172,128,0.490699606388876
60,-172,130,0.429315873483195
60,-172,132,0.372434076646724
60,-172,134,0.319749339079525
60,-172,136,0.270517716947981
60,-172,138,0.223849392008105
60,-172,140,0.179128197588783
60,-172,142,0.136443119828697
60,-172,144,0.0968678512690563
60,-172,146,0.0624221647872494
60,-172,148,0.0356181470411274
60,-172,150,0.0186360676091686
60,-172,152,0.0123528264639106
60,-172,154,0.0155883170114139
60,-172,156,0.0249561325228781
60,-172,158,0.0355483673977832
60,-172,160,0.042367232651096
60,-172,162,0.0420497003173452
60,-172,164,0.0341904258267732
60,-172,166,0.0216125032788315
60,-172,168,0.00931237371946535
60,-172,170,0.00239016263331767
60,-172,172,0.00380306449823345
60,-172,174,0.0129603929161716
60,-172,176,0.025869449751786
60,-172,178,0.0368448321994615
60,-172,180,0.041037486142265
60,-170,0,7.36752269720022
60,-170,2,7.29279465199262
60,-170,4,7.06040872719779
60,-170,6,6.68369535882311
60,-170,8,6.18129960765881
60,-170,10,5.57292880944593
60,-170,12,4.87742408508284
60,-170,14,4.11437535334374
60,-170,16,3.30845346485299
60,-170,18,2.49398028696602
60,-170,20,1.71685740020476
60,-170,22,1.03200035178664
60,-170,24,0.496332487863358
60,-170,26,0.159255162121364
60,-170,28,0.0535132748459427
60,-170,30,0.189175915905524
60,-170,32,0.55227040330658
60,-170,34,1.10803502604822
60,-170,36,1.80743531167287
60,-170,38,2.59494187442957
60,-170,40,3.41567324654852
60,-170,42,4.22065047547167
60,-170,44,4.96974092773416
60,-170,46,5.63256714867658
60,-170,48,6.18804259202443
60,-170,50,6.62325146651371
60,-170,52,6.93221378315957
60,-170,54,7.11481126106519
60,-170,56,7.17591623153136
60,-170,58,7.12462968224411
60,-170,60,6.97350390987742
60,-170,62,6.73766881198936
60,-170,64,6.4338539689221
60,-170,66,6.07936332763099
60,-170,68,5.69109426060926
60,-170,70,5.28469411862158
60,-170,72,4.87392321930589
60,-170,74,4.4702565996339
60,-170,76,4.08272013432326
60,-170,78,3.71792814049335
60,-170,80,3.38027296897411
60,-170,82,3.07221206060463
60,-170,84,2.79460191126015
60,-170,86,2.54703788260578
60,-170,88,2.3281705860716
60,-170,90,2.13598122310246
60,-170,92,1.96800829848175
60,-170,94,1.82152587167105
60,-170,96,1.69367888886634
60,-170,98,1.5815843810775
60,-170,100,1.4824087638024
60,-170,102,1.39343144227094
60,-170,104,1.31210362774474
60,-170,106,1.23610883134934
60,-170,108,1.1634280251549
60,-170,110,1.09240813048839
60,-170,112,1.02182769771551
60,-170,114,0.950949066092863
60,-170,116,0.879542947675549
60,-170,118,0.807870506373818
60,-170,120,0.736610824424663
60,-170,122,0.66672897406567
60,-170,124,0.599291667836077
60,-170,126,0.535252265538488
60,-170,128,0.475241877666975
60,-170,130,0.419414199475592
60,-170,132,0.367393644852623
60,-170,134,0.318364931462171
60,-170,136,0.271315180053548
60,-170,138,0.22539836946311
60,-170,140,0.180343630315419
60,-170,142,0.136786550462985
60,-170,144,0.0963845676807896
60,-170,146,0.061602397262404
60,-170,148,0.0351325153980462
60,-170,150,0.0190422980777982
60,-170,152,0.0138807584655218
60,-170,154,0.0180764239557528
60,-170,156,0.0279483963419318
60,-170,158,0.0384940799042911
60,-170,160,0.0448286690659467
60,-170,162,0.0438301727826648
60,-170,164,0.0353417102981596
60,-170,166,0.022340591035167
60,-170,168,0.00984354467696743
60,-170,170,0.00286660057371042
60,-170,172,0.00425009208074261
60,-170,174,0.0133245262260175
60,-170,176,0.0260915384003489
60,-170,178,0.0369213916023134
60,-170,180,0.041037486142265
60,-168,0,7.36752269720022
60,-168,2,7.29326847252144
60,-168,4,7.06240393154118
60,-168,6,6.68842810303872
60,-168,8,6.19027200193106
60,-168,10,5.58799094016747
60,-168,12,4.90065901271649
60,-168,14,4.14770341733094
60,-168,16,3.35295874621938
60,-168,18,2.54911226219603
60,-168,20,1.77977455667484
60,-168,22,1.0973308994502
60,-168,24,0.556513073202184
60,-168,26,0.205416742088886
60,-168,28,0.0766972657147872
60,-168,30,0.181561630598151
60,-168,32,0.508112693999493
60,-168,34,1.02413038164287
60,-168,36,1.68309744039275
60,-168,38,2.43160772495498
60,-168,40,3.21633213003069
60,-168,42,3.98928231245101
60,-168,44,4.71088592562518
60,-168,46,5.3510652015835
60,-168,48,5.88891065446679
60,-168,50,6.31163076327405
60,-168,52,6.61331811496102
60,-168,54,6.79383199980558
60,-168,56,6.85787292763931
60,-168,58,6.81418363543983
60,-168,60,6.67476773787586
60,-168,62,6.45404672733277
60,-168,64,6.16793860279603
60,-168,66,5.83290098244063
60,-168,68,5.46501654730984
60,-168,70,5.07920346055785
60,-168,72,4.68861407651434
60,-168,74,4.30425323598826
60,-168,76,3.93481410246113
60,-168,78,3.58670288489837
60,-168,80,3.2642077029015
60,-168,82,2.96976141493598
60,-168,84,2.70425128070364
60,-168,86,2.46733676950494
60,-168,88,2.25774766953232
60,-168,90,2.07354558811897
60,-168,92,1.9123414998206
60,-168,94,1.77146949667421
60,-168,96,1.64812216364443
60,-168,98,1.53945618464697
60,-168,100,1.44267812594397
60,-168,102,1.3551200639944
60,-168,104,1.27431297020414
60,-168,106,1.19806263703992
60,-168,108,1.12452858059889
60,-168,110,1.05230112476499
60,-168,112,0.980466434259696
60,-168,114,0.908644711398241
60,-168,116,0.836984577332999
60,-168,118,0.766098435877336
60,-168,120,0.696930648276775
60,-168,122,0.630562932519999
60,-168,124,0.567978209534675
60,-168,126,0.50982181097962
60,-168,128,0.456212416433852
60,-168,130,0.406658436689228
60,-168,132,0.360123991595093
60,-168,134,0.315260489185868
60,-168,136,0.270778262127154
60,-168,138,0.225886185837682
60,-168,140,0.180688177648081
60,-168,142,0.13640783210248
60,-168,144,0.0953279590782905
60,-168,146,0.0603865058866982
60,-168,148,0.0344610858512341
60,-168,150,0.0194854827270492
60,-168,152,0.0156430965452646
60,-168,154,0.0209324674475041
60,-168,156,0.0313558173551606
60,-168,158,0.0418199392940675
60,-168,160,0.047581892141508
60,-168,162,0.0458016137517558
60,-168,164,0.0366060933487095
60,-168,166,0.0231433013546971
60,-168,168,0.0104445990176118
60,-168,170,0.00342191466182646
60,-168,172,0.00477786183078434
60,-168,174,0.0137540138239855
60,-168,176,0.0263508411319872
60,-168,178,0.037008594382503
60,-168,180,0.0410374861422649
60,-166,0,7.36752269720022
60,-166,2,7.29381172428749
60,-166,4,7.06470068116701
60,-166,6,6.69387884899529
60,-166,8,6.20060050224557
60,-166,10,5.60531894407696
60,-166,12,4.92738474303697
60,-166,14,4.18606371252708
60,-166,16,3.40427267831262
60,-166,18,2.61287309159163
60,-166,20,1.85288804485576
60,-166,22,1.17381320276097
60,-166,24,0.627838895421331
60,-166,26,0.26149561267979
60,-166,28,0.10724417166921
60,-166,30,0.177506057987158
60,-166,32,0.462700840067595
60,-166,34,0.933502034551466
60,-166,36,1.54629983550569
60,-166,38,2.25016994195212
60,-166,40,2.99361259398841
60,-166,42,3.72980391451663
60,-166,44,4.41980857947962
60,-166,46,5.03385344015402
60,-166,48,5.55117243604207
60,-166,50,5.9590566452717
60,-166,52,6.25164221317194
60,-166,54,6.42875782503114
60,-166,56,6.49494182599876
60,-166,58,6.45859582847196
60,-166,60,6.33118633776561
60,-166,62,6.12642092104176
60,-166,64,5.85937606375296
60,-166,66,5.54560668619576
60,-166,68,5.20030087391265
60,-166,70,4.83755066970908
60,-166,72,4.46979489088681
60,-166,74,4.10746258294412
60,-166,76,3.75881613904771
60,-166,78,3.42996888467677
60,-166,80,3.12503685947898
60,-166,82,2.84637906868754
60,-166,84,2.59488285710854
60,-166,86,2.37025855227501
60,-166,88,2.17131741172049
60,-166,90,1.9962170413668
60,-166,92,1.84266743111346
60,-166,94,1.70809787232291
60,-166,96,1.58979006951501
60,-166,98,1.48498580198709
60,-166,100,1.39097868994935
60,-166,102,1.30519911081742
60,-166,104,1.22529917406173
